T3C48 399:019 SEGGER J-Link V4.88 Log File (0000ms, 1342ms total)
T3C48 399:019 DLL Compiled: Jul 15 2014 08:50:40 (0000ms, 1342ms total)
T3C48 399:019 Logging started @ 2021-04-06 22:31 (0000ms, 1342ms total)
T3C48 399:019 JLINK_SetWarnOutHandler(...) (0000ms, 1342ms total)
T3C48 399:019 JLINK_OpenEx(...)
Firmware: J-Link ARM-OB STM32 compiled Aug 22 2012 19:52:04
Hardware: V7.00
S/N: 20090928
Feature(s): RDI,FlashDL,FlashBP,JFlash,GDBFullDevice "UNSPECIFIED" selected (0 KB flash, 0 KB RAM).  returns O.K. (0262ms, 1604ms total)
T3C48 399:281 JLINK_GetEmuCaps()  returns 0x88EA5833 (0000ms, 1604ms total)
T3C48 399:282 JLINK_TIF_GetAvailable(...) (0000ms, 1604ms total)
T3C48 399:282 JLINK_SetErrorOutHandler(...) (0000ms, 1604ms total)
T3C48 399:282 JLINK_ExecCommand("ProjectFile = "C:\Users\22734\Desktop\Motor\VESCProj\JLinkSettings.ini"", ...)Device "UNSPECIFIED" selected (0 KB flash, 0 KB RAM).  returns 0x00 (0000ms, 1604ms total)
T3C48 399:282 JLINK_ExecCommand("Device = STM32F405ZGTx", ...)Device "UNSPECIFIED" selected (0 KB flash, 0 KB RAM).  returns 0x00 (0000ms, 1604ms total)
T3C48 399:282 JLINK_ExecCommand("DisableConnectionTimeout", ...)  returns 0x01 (0000ms, 1605ms total)
T3C48 399:283 JLINK_GetHardwareVersion()  returns 0x11170 (0000ms, 1605ms total)
T3C48 399:283 JLINK_GetDLLVersion()  returns 48800 (0000ms, 1605ms total)
T3C48 399:283 JLINK_GetFirmwareString(...) (0000ms, 1605ms total)
T3C48 399:283 JLINK_GetDLLVersion()  returns 48800 (0000ms, 1605ms total)
T3C48 399:283 JLINK_GetCompileDateTime() (0000ms, 1605ms total)
T3C48 399:283 JLINK_GetFirmwareString(...) (0000ms, 1605ms total)
T3C48 399:283 JLINK_GetHardwareVersion()  returns 0x11170 (0000ms, 1605ms total)
T3C48 399:283 JLINK_TIF_Select(JLINKARM_TIF_SWD)  returns 0x00 (0000ms, 1605ms total)
T3C48 399:283 JLINK_SetSpeed(5000) (0001ms, 1606ms total)
T3C48 399:284 JLINK_GetId() >0x108 TIF>Found SWD-DP with ID 0x2BA01477 >0x0D TIF> >0x21 TIF> >0x0D TIF> >0x28 TIF> >0x0D TIF> >0x28 TIF> >0x0D TIF> >0x21 TIF> >0x0D TIF> >0x28 TIF> >0x0D TIF> >0x21 TIF> >0x0D TIF> >0x21 TIF> >0x0D TIF> >0x21 TIF> >0x0D TIF> >0x21 TIF> >0x0D TIF> >0x28 TIF> >0x0D TIF> >0x28 TIF> >0x0D TIF> >0x21 TIF> >0x0D TIF> >0x28 TIF> >0x0D TIF> >0x28 TIF> >0x0D TIF> >0x28 TIF> >0x0D TIF> >0x21 TIF> >0x0D TIF> >0x21 TIF> >0x0D TIF> >0x28 TIF> >0x0D TIF> >0x21 TIF> >0x0D TIF>
 >0x21 TIF>Found Cortex-M4 r0p1, Little endian. -- CPU_WriteMem(4 bytes @ 0xE0002000) -- CPU_ReadMem(4 bytes @ 0xE000EDF0) -- CPU_ReadMem(4 bytes @ 0xE0002000)FPUnit: 6 code (BP) slots and 2 literal slots -- CPU_ReadMem(4 bytes @ 0xE000EDFC) -- CPU_ReadMem(4 bytes @ 0xE0001000) -- CPU_WriteMem(4 bytes @ 0xE0001000) -- CPU_ReadMem(4 bytes @ 0xE00FF010)TPIU fitted. -- CPU_ReadMem(4 bytes @ 0xE00FF014)ETM fitted. -- CPU_ReadMem(4 bytes @ 0xE00FF018) >0x0D TIF> >0x21 TIF>  returns 0x2BA01477
 (0018ms, 1624ms total)
T3C48 399:302 JLINK_GetDLLVersion()  returns 48800 (0000ms, 1624ms total)
T3C48 399:302 JLINK_CORE_GetFound()  returns 0xE0000FF (0000ms, 1624ms total)
T3C48 399:302 JLINK_GetDebugInfo(0x100) -- Value=0xE00FF003  returns 0x00 (0000ms, 1624ms total)
T3C48 399:302 JLINK_GetDebugInfo(0x101)  returns 0xFFFFFFFF (0000ms, 1624ms total)
T3C48 399:302 JLINK_ReadMemEx(0xE0041FF0, 0x0010 Bytes, ..., AccessWidth = 33554436) -- CPU is running -- CPU_ReadMem(16 bytes @ 0xE0041FF0) - Data: 0D 00 00 00 90 00 00 00 05 00 00 00 B1 00 00 00  returns 0x10 (0001ms, 1625ms total)
T3C48 399:303 JLINK_GetDebugInfo(0x102)  returns 0xFFFFFFFF (0000ms, 1625ms total)
T3C48 399:303 JLINK_GetDebugInfo(0x103)  returns 0xFFFFFFFF (0000ms, 1625ms total)
T3C48 399:303 JLINK_ReadMemEx(0xE0040FF0, 0x0010 Bytes, ..., AccessWidth = 33554436) -- CPU is running -- CPU_ReadMem(16 bytes @ 0xE0040FF0) - Data: 0D 00 00 00 90 00 00 00 05 00 00 00 B1 00 00 00  returns 0x10 (0001ms, 1626ms total)
T3C48 399:304 JLINK_GetDebugInfo(0x104)  returns 0xFFFFFFFF (0000ms, 1626ms total)
T3C48 399:304 JLINK_GetDebugInfo(0x105)  returns 0xFFFFFFFF (0000ms, 1626ms total)
T3C48 399:304 JLINK_GetDebugInfo(0x106)  returns 0xFFFFFFFF (0000ms, 1626ms total)
T3C48 399:305 JLINK_GetDebugInfo(0x107)  returns 0xFFFFFFFF (0000ms, 1627ms total)
T3C48 399:305 JLINK_GetDebugInfo(0x10C)  returns 0xFFFFFFFF (0000ms, 1627ms total)
T3C48 399:305 JLINK_GetDebugInfo(0x01)  returns 0xFFFFFFFF (0000ms, 1627ms total)
T3C48 399:305 JLINK_GetDeviceFamily()  returns 14 (0000ms, 1627ms total)
T3C48 399:305 JLINK_ReadMemU32(0xE000ED00, 0x0001 Items, ...) -- CPU is running -- CPU_ReadMem(4 bytes @ 0xE000ED00) - Data: 41 C2 0F 41  returns 0x01 (0001ms, 1628ms total)
T3C48 399:306 JLINK_GetDebugInfo(0x10F)  returns 0xFFFFFFFF (0000ms, 1628ms total)
T3C48 399:306 JLINK_SetResetType(JLINKARM_RESET_TYPE_NORMAL)  returns JLINKARM_RESET_TYPE_NORMAL (0000ms, 1628ms total)
T3C48 399:306 JLINK_Reset() -- CPU is running -- CPU_WriteMem(4 bytes @ 0xE000EDF0) -- CPU is running -- CPU_WriteMem(4 bytes @ 0xE000EDFC) >0x35 TIF> -- CPU is running -- CPU_WriteMem(4 bytes @ 0xE000ED0C) -- CPU is running -- CPU_ReadMem(4 bytes @ 0xE000EDF0) -- CPU is running -- CPU_ReadMem(4 bytes @ 0xE000EDF0) -- CPU is running -- CPU_WriteMem(4 bytes @ 0xE000EDF0) -- CPU is running -- CPU_WriteMem(4 bytes @ 0xE000EDFC) -- CPU is running -- CPU_ReadMem(4 bytes @ 0xE000EDF0)
 -- CPU_WriteMem(4 bytes @ 0xE0002000) -- CPU_ReadMem(4 bytes @ 0xE000EDFC) -- CPU_ReadMem(4 bytes @ 0xE0001000) (0020ms, 1648ms total)
T3C48 399:326 JLINK_ReadReg(R15 (PC))  returns 0x0800019C (0000ms, 1648ms total)
T3C48 399:326 JLINK_ReadReg(XPSR)  returns 0x01000000 (0000ms, 1648ms total)
T3C48 399:326 JLINK_Halt()  returns 0x00 (0000ms, 1648ms total)
T3C48 399:326 JLINK_ReadMemU32(0xE000EDF0, 0x0001 Items, ...) -- CPU_ReadMem(4 bytes @ 0xE000EDF0) - Data: 03 00 03 00  returns 0x01 (0001ms, 1649ms total)
T3C48 399:327 JLINK_WriteU32(0xE000EDF0, 0xA05F0003) -- CPU_WriteMem(4 bytes @ 0xE000EDF0)  returns 0x00 (0000ms, 1649ms total)
T3C48 399:327 JLINK_WriteU32(0xE000EDFC, 0x01000000) -- CPU_WriteMem(4 bytes @ 0xE000EDFC)  returns 0x00 (0001ms, 1650ms total)
T3C48 399:328 JLINK_GetHWStatus(...)  returns 0x00 (0000ms, 1650ms total)
T3C48 399:328 JLINK_GetNumBPUnits(Type = 0xFFFFFF00)  returns 0x06 (0000ms, 1650ms total)
T3C48 399:328 JLINK_GetNumBPUnits(Type = 0xF0)  returns 0x2000 (0000ms, 1650ms total)
T3C48 399:328 JLINK_GetNumWPUnits()  returns 0x04 (0000ms, 1650ms total)
T3C48 399:328 JLINK_GetSpeed()  returns 0xFA0 (0000ms, 1650ms total)
T3C48 399:328 JLINK_ReadMemU32(0xE000E004, 0x0001 Items, ...) -- CPU_ReadMem(4 bytes @ 0xE000E004) - Data: 02 00 00 00  returns 0x01 (0001ms, 1651ms total)
T3C48 399:329 JLINK_ReadMemU32(0xE000E004, 0x0001 Items, ...) -- CPU_ReadMem(4 bytes @ 0xE000E004) - Data: 02 00 00 00  returns 0x01 (0001ms, 1652ms total)
T3C48 399:330 JLINK_WriteMemEx(0xE0001000, 0x001C Bytes, ..., AccessWidth = 33554436) - Data: 01 00 00 00 00 00 00 00 00 00 00 00 00 00 00 00 ... -- CPU_WriteMem(28 bytes @ 0xE0001000)  returns 0x1C (0001ms, 1653ms total)
T3C48 399:331 JLINK_ReadReg(R15 (PC))  returns 0x0800019C (0000ms, 1653ms total)
T3C48 399:331 JLINK_ReadReg(XPSR)  returns 0x01000000 (0000ms, 1653ms total)
T3C48 399:428 JLINK_SetResetType(JLINKARM_RESET_TYPE_NORMAL)  returns JLINKARM_RESET_TYPE_NORMAL (0000ms, 1653ms total)
T3C48 399:428 JLINK_Reset() -- CPU_WriteMem(4 bytes @ 0xE000EDF0) -- CPU_WriteMem(4 bytes @ 0xE000EDFC) >0x35 TIF> -- CPU_WriteMem(4 bytes @ 0xE000ED0C) -- CPU_ReadMem(4 bytes @ 0xE000EDF0) -- CPU_ReadMem(4 bytes @ 0xE000EDF0) -- CPU_WriteMem(4 bytes @ 0xE000EDF0) -- CPU_WriteMem(4 bytes @ 0xE000EDFC) -- CPU is running -- CPU_ReadMem(4 bytes @ 0xE000EDF0) -- CPU_WriteMem(4 bytes @ 0xE0002000) -- CPU_ReadMem(4 bytes @ 0xE000EDFC) -- CPU_ReadMem(4 bytes @ 0xE0001000) (0021ms, 1674ms total)
T3C48 399:449 JLINK_ReadReg(R15 (PC))  returns 0x0800019C (0000ms, 1674ms total)
T3C48 399:449 JLINK_ReadReg(XPSR)  returns 0x01000000 (0000ms, 1674ms total)
T3C48 399:809 JLINK_ReadMemEx(0x08000188, 0x003C Bytes, ..., AccessWidth = 33554432)Mis-aligned memory read: Address: 0x08000188, NumBytes: 60, Alignment: 2 (Halfword-aligned)
  ***** Mis-aligned memory read: Address: 0x08000188, NumBytes: 60, Alignment: 2 (Halfword-aligned) -- CPU_ReadMem(60 bytes @ 0x08000188) - Data: DF F8 0C D0 00 F0 BE F8 00 48 00 47 C9 24 00 08 ...  returns 0x3C (0002ms, 1676ms total)
T3C48 399:913 JLINK_ReadMemEx(0x40026400, 0x00CC Bytes, ..., AccessWidth = 33554436) -- CPU_ReadMem(204 bytes @ 0x40026400) - Data: 00 00 00 00 00 00 00 00 00 00 00 00 00 00 00 00 ...  returns 0xCC (0002ms, 1678ms total)
T3C48 399:915 JLINK_ReadMemEx(0x40026400, 0x0004 Bytes, ..., AccessWidth = 33554436) -- CPU_ReadMem(4 bytes @ 0x40026400) - Data: 00 00 00 00  returns 0x04 (0001ms, 1679ms total)
T3C48 399:916 JLINK_ReadMemEx(0x40026404, 0x0004 Bytes, ..., AccessWidth = 33554436) -- CPU_ReadMem(4 bytes @ 0x40026404) - Data: 00 00 00 00  returns 0x04 (0000ms, 1679ms total)
T3C48 399:917 JLINK_ReadMemEx(0x40026408, 0x0004 Bytes, ..., AccessWidth = 33554436) -- CPU_ReadMem(4 bytes @ 0x40026408) - Data: 00 00 00 00  returns 0x04 (0000ms, 1680ms total)
T3C48 399:917 JLINK_ReadMemEx(0x4002640C, 0x0004 Bytes, ..., AccessWidth = 33554436) -- CPU_ReadMem(4 bytes @ 0x4002640C) - Data: 00 00 00 00  returns 0x04 (0001ms, 1681ms total)
T3C48 399:918 JLINK_ReadMemEx(0x40026410, 0x0004 Bytes, ..., AccessWidth = 33554436) -- CPU_ReadMem(4 bytes @ 0x40026410) - Data: 00 00 00 00  returns 0x04 (0000ms, 1681ms total)
T3C48 399:918 JLINK_ReadMemEx(0x40026414, 0x0004 Bytes, ..., AccessWidth = 33554436) -- CPU_ReadMem(4 bytes @ 0x40026414) - Data: 00 00 00 00  returns 0x04 (0001ms, 1682ms total)
T3C48 399:919 JLINK_ReadMemEx(0x40026418, 0x0004 Bytes, ..., AccessWidth = 33554436) -- CPU_ReadMem(4 bytes @ 0x40026418) - Data: 00 00 00 00  returns 0x04 (0000ms, 1682ms total)
T3C48 399:919 JLINK_ReadMemEx(0x4002641C, 0x0004 Bytes, ..., AccessWidth = 33554436) -- CPU_ReadMem(4 bytes @ 0x4002641C) - Data: 00 00 00 00  returns 0x04 (0001ms, 1683ms total)
T3C48 399:920 JLINK_ReadMemEx(0x40026420, 0x0004 Bytes, ..., AccessWidth = 33554436) -- CPU_ReadMem(4 bytes @ 0x40026420) - Data: 00 00 00 00  returns 0x04 (0000ms, 1683ms total)
T3C48 399:920 JLINK_ReadMemEx(0x40026424, 0x0004 Bytes, ..., AccessWidth = 33554436) -- CPU_ReadMem(4 bytes @ 0x40026424) - Data: 00 00 00 00  returns 0x04 (0001ms, 1684ms total)
T3C48 399:921 JLINK_ReadMemEx(0x40026428, 0x0004 Bytes, ..., AccessWidth = 33554436) -- CPU_ReadMem(4 bytes @ 0x40026428) - Data: 00 00 00 00  returns 0x04 (0000ms, 1684ms total)
T3C48 399:921 JLINK_ReadMemEx(0x4002642C, 0x0004 Bytes, ..., AccessWidth = 33554436) -- CPU_ReadMem(4 bytes @ 0x4002642C) - Data: 00 00 00 00  returns 0x04 (0001ms, 1685ms total)
T3C48 399:922 JLINK_ReadMemEx(0x40026430, 0x0004 Bytes, ..., AccessWidth = 33554436) -- CPU_ReadMem(4 bytes @ 0x40026430) - Data: 00 00 00 00  returns 0x04 (0000ms, 1685ms total)
T3C48 399:922 JLINK_ReadMemEx(0x40026434, 0x0004 Bytes, ..., AccessWidth = 33554436) -- CPU_ReadMem(4 bytes @ 0x40026434) - Data: 00 00 00 00  returns 0x04 (0001ms, 1686ms total)
T3C48 399:923 JLINK_ReadMemEx(0x40026438, 0x0004 Bytes, ..., AccessWidth = 33554436) -- CPU_ReadMem(4 bytes @ 0x40026438) - Data: 00 00 00 00  returns 0x04 (0001ms, 1687ms total)
T3C48 399:924 JLINK_ReadMemEx(0x4002643C, 0x0004 Bytes, ..., AccessWidth = 33554436) -- CPU_ReadMem(4 bytes @ 0x4002643C) - Data: 00 00 00 00  returns 0x04 (0000ms, 1687ms total)
T3C48 399:924 JLINK_ReadMemEx(0x40026440, 0x0004 Bytes, ..., AccessWidth = 33554436) -- CPU_ReadMem(4 bytes @ 0x40026440) - Data: 00 00 00 00  returns 0x04 (0001ms, 1688ms total)
T3C48 399:925 JLINK_ReadMemEx(0x40026444, 0x0004 Bytes, ..., AccessWidth = 33554436) -- CPU_ReadMem(4 bytes @ 0x40026444) - Data: 00 00 00 00  returns 0x04 (0000ms, 1688ms total)
T3C48 399:925 JLINK_ReadMemEx(0x40026448, 0x0004 Bytes, ..., AccessWidth = 33554436) -- CPU_ReadMem(4 bytes @ 0x40026448) - Data: 00 00 00 00  returns 0x04 (0001ms, 1689ms total)
T3C48 399:926 JLINK_ReadMemEx(0x4002644C, 0x0004 Bytes, ..., AccessWidth = 33554436) -- CPU_ReadMem(4 bytes @ 0x4002644C) - Data: 00 00 00 00  returns 0x04 (0000ms, 1689ms total)
T3C48 399:926 JLINK_ReadMemEx(0x40026450, 0x0004 Bytes, ..., AccessWidth = 33554436) -- CPU_ReadMem(4 bytes @ 0x40026450) - Data: 00 00 00 00  returns 0x04 (0001ms, 1690ms total)
T3C48 399:927 JLINK_ReadMemEx(0x40026454, 0x0004 Bytes, ..., AccessWidth = 33554436) -- CPU_ReadMem(4 bytes @ 0x40026454) - Data: 00 00 00 00  returns 0x04 (0001ms, 1691ms total)
T3C48 399:928 JLINK_ReadMemEx(0x40026458, 0x0004 Bytes, ..., AccessWidth = 33554436) -- CPU_ReadMem(4 bytes @ 0x40026458) - Data: 00 00 00 00  returns 0x04 (0000ms, 1691ms total)
T3C48 399:928 JLINK_ReadMemEx(0x4002645C, 0x0004 Bytes, ..., AccessWidth = 33554436) -- CPU_ReadMem(4 bytes @ 0x4002645C) - Data: 00 00 00 00  returns 0x04 (0001ms, 1692ms total)
T3C48 399:929 JLINK_ReadMemEx(0x40026460, 0x0004 Bytes, ..., AccessWidth = 33554436) -- CPU_ReadMem(4 bytes @ 0x40026460) - Data: 00 00 00 00  returns 0x04 (0001ms, 1693ms total)
T3C48 399:930 JLINK_ReadMemEx(0x40026464, 0x0004 Bytes, ..., AccessWidth = 33554436) -- CPU_ReadMem(4 bytes @ 0x40026464) - Data: 00 00 00 00  returns 0x04 (0000ms, 1693ms total)
T3C48 399:930 JLINK_ReadMemEx(0x40026468, 0x0004 Bytes, ..., AccessWidth = 33554436) -- CPU_ReadMem(4 bytes @ 0x40026468) - Data: 00 00 00 00  returns 0x04 (0001ms, 1694ms total)
T3C48 399:931 JLINK_ReadMemEx(0x4002646C, 0x0004 Bytes, ..., AccessWidth = 33554436) -- CPU_ReadMem(4 bytes @ 0x4002646C) - Data: 00 00 00 00  returns 0x04 (0000ms, 1694ms total)
T3C48 399:931 JLINK_ReadMemEx(0x40026470, 0x0004 Bytes, ..., AccessWidth = 33554436) -- CPU_ReadMem(4 bytes @ 0x40026470) - Data: 00 00 00 00  returns 0x04 (0001ms, 1695ms total)
T3C48 399:932 JLINK_ReadMemEx(0x40026474, 0x0004 Bytes, ..., AccessWidth = 33554436) -- CPU_ReadMem(4 bytes @ 0x40026474) - Data: 00 00 00 00  returns 0x04 (0001ms, 1696ms total)
T3C48 399:933 JLINK_ReadMemEx(0x40026478, 0x0004 Bytes, ..., AccessWidth = 33554436) -- CPU_ReadMem(4 bytes @ 0x40026478) - Data: 00 00 00 00  returns 0x04 (0000ms, 1696ms total)
T3C48 399:933 JLINK_ReadMemEx(0x4002647C, 0x0004 Bytes, ..., AccessWidth = 33554436) -- CPU_ReadMem(4 bytes @ 0x4002647C) - Data: 00 00 00 00  returns 0x04 (0001ms, 1697ms total)
T3C48 399:934 JLINK_ReadMemEx(0x40026480, 0x0004 Bytes, ..., AccessWidth = 33554436) -- CPU_ReadMem(4 bytes @ 0x40026480) - Data: 00 00 00 00  returns 0x04 (0000ms, 1697ms total)
T3C48 399:934 JLINK_ReadMemEx(0x40026484, 0x0004 Bytes, ..., AccessWidth = 33554436) -- CPU_ReadMem(4 bytes @ 0x40026484) - Data: 00 00 00 00  returns 0x04 (0001ms, 1698ms total)
T3C48 399:935 JLINK_ReadMemEx(0x40026488, 0x0004 Bytes, ..., AccessWidth = 33554436) -- CPU_ReadMem(4 bytes @ 0x40026488) - Data: 00 00 00 00  returns 0x04 (0001ms, 1699ms total)
T3C48 399:936 JLINK_ReadMemEx(0x4002648C, 0x0004 Bytes, ..., AccessWidth = 33554436) -- CPU_ReadMem(4 bytes @ 0x4002648C) - Data: 00 00 00 00  returns 0x04 (0000ms, 1699ms total)
T3C48 399:936 JLINK_ReadMemEx(0x40026490, 0x0004 Bytes, ..., AccessWidth = 33554436) -- CPU_ReadMem(4 bytes @ 0x40026490) - Data: 00 00 00 00  returns 0x04 (0001ms, 1700ms total)
T3C48 399:937 JLINK_ReadMemEx(0x40026494, 0x0004 Bytes, ..., AccessWidth = 33554436) -- CPU_ReadMem(4 bytes @ 0x40026494) - Data: 00 00 00 00  returns 0x04 (0000ms, 1700ms total)
T3C48 399:937 JLINK_ReadMemEx(0x40026498, 0x0004 Bytes, ..., AccessWidth = 33554436) -- CPU_ReadMem(4 bytes @ 0x40026498) - Data: 00 00 00 00  returns 0x04 (0001ms, 1701ms total)
T3C48 399:938 JLINK_ReadMemEx(0x4002649C, 0x0004 Bytes, ..., AccessWidth = 33554436) -- CPU_ReadMem(4 bytes @ 0x4002649C) - Data: 00 00 00 00  returns 0x04 (0000ms, 1701ms total)
T3C48 399:939 JLINK_ReadMemEx(0x400264A0, 0x0004 Bytes, ..., AccessWidth = 33554436) -- CPU_ReadMem(4 bytes @ 0x400264A0) - Data: 00 00 00 00  returns 0x04 (0000ms, 1702ms total)
T3C48 399:939 JLINK_ReadMemEx(0x400264A4, 0x0004 Bytes, ..., AccessWidth = 33554436) -- CPU_ReadMem(4 bytes @ 0x400264A4) - Data: 00 00 00 00  returns 0x04 (0001ms, 1703ms total)
T3C48 399:940 JLINK_ReadMemEx(0x400264A8, 0x0004 Bytes, ..., AccessWidth = 33554436) -- CPU_ReadMem(4 bytes @ 0x400264A8) - Data: 00 00 00 00  returns 0x04 (0000ms, 1703ms total)
T3C48 399:940 JLINK_ReadMemEx(0x400264AC, 0x0004 Bytes, ..., AccessWidth = 33554436) -- CPU_ReadMem(4 bytes @ 0x400264AC) - Data: 00 00 00 00  returns 0x04 (0001ms, 1704ms total)
T3C48 399:941 JLINK_ReadMemEx(0x400264B0, 0x0004 Bytes, ..., AccessWidth = 33554436) -- CPU_ReadMem(4 bytes @ 0x400264B0) - Data: 00 00 00 00  returns 0x04 (0001ms, 1705ms total)
T3C48 399:942 JLINK_ReadMemEx(0x400264B4, 0x0004 Bytes, ..., AccessWidth = 33554436) -- CPU_ReadMem(4 bytes @ 0x400264B4) - Data: 00 00 00 00  returns 0x04 (0000ms, 1705ms total)
T3C48 399:942 JLINK_ReadMemEx(0x400264B8, 0x0004 Bytes, ..., AccessWidth = 33554436) -- CPU_ReadMem(4 bytes @ 0x400264B8) - Data: 00 00 00 00  returns 0x04 (0001ms, 1706ms total)
T3C48 399:943 JLINK_ReadMemEx(0x400264BC, 0x0004 Bytes, ..., AccessWidth = 33554436) -- CPU_ReadMem(4 bytes @ 0x400264BC) - Data: 00 00 00 00  returns 0x04 (0001ms, 1707ms total)
T3C48 399:944 JLINK_ReadMemEx(0x400264C0, 0x0004 Bytes, ..., AccessWidth = 33554436) -- CPU_ReadMem(4 bytes @ 0x400264C0) - Data: 00 00 00 00  returns 0x04 (0000ms, 1707ms total)
T3C48 399:944 JLINK_ReadMemEx(0x400264C4, 0x0004 Bytes, ..., AccessWidth = 33554436) -- CPU_ReadMem(4 bytes @ 0x400264C4) - Data: 00 00 00 00  returns 0x04 (0001ms, 1708ms total)
T3C48 399:945 JLINK_ReadMemEx(0x400264C8, 0x0004 Bytes, ..., AccessWidth = 33554436) -- CPU_ReadMem(4 bytes @ 0x400264C8) - Data: 00 00 00 00  returns 0x04 (0000ms, 1708ms total)
T3C48 399:945 JLINK_ReadMemEx(0x400264CC, 0x0004 Bytes, ..., AccessWidth = 33554436) -- CPU_ReadMem(4 bytes @ 0x400264CC) - Data: 00 00 00 00  returns 0x04 (0001ms, 1709ms total)
T3C48 399:946 JLINK_ReadMemEx(0x400264CC, 0x0004 Bytes, ..., AccessWidth = 33554436) -- CPU_ReadMem(4 bytes @ 0x400264CC) - Data: 00 00 00 00  returns 0x04 (0000ms, 1709ms total)
T3C48 402:718 JLINK_ReadReg(R0)  returns 0x00000000 (0001ms, 1710ms total)
T3C48 402:719 JLINK_ReadReg(R1)  returns 0x00000000 (0000ms, 1710ms total)
T3C48 402:719 JLINK_ReadReg(R2)  returns 0x00000000 (0000ms, 1710ms total)
T3C48 402:719 JLINK_ReadReg(R3)  returns 0x00000000 (0000ms, 1710ms total)
T3C48 402:719 JLINK_ReadReg(R4)  returns 0x00000000 (0000ms, 1710ms total)
T3C48 402:719 JLINK_ReadReg(R5)  returns 0x00000000 (0000ms, 1710ms total)
T3C48 402:719 JLINK_ReadReg(R6)  returns 0x00000000 (0000ms, 1710ms total)
T3C48 402:719 JLINK_ReadReg(R7)  returns 0x00000000 (0000ms, 1710ms total)
T3C48 402:720 JLINK_ReadReg(R8)  returns 0x00000000 (0000ms, 1711ms total)
T3C48 402:720 JLINK_ReadReg(R9)  returns 0x00000000 (0000ms, 1711ms total)
T3C48 402:720 JLINK_ReadReg(R10)  returns 0x00000000 (0000ms, 1711ms total)
T3C48 402:720 JLINK_ReadReg(R11)  returns 0x00000000 (0000ms, 1711ms total)
T3C48 402:720 JLINK_ReadReg(R12)  returns 0x00000000 (0000ms, 1711ms total)
T3C48 402:720 JLINK_ReadReg(R13 (SP))  returns 0x20002EC0 (0000ms, 1711ms total)
T3C48 402:720 JLINK_ReadReg(R14)  returns 0xFFFFFFFF (0000ms, 1711ms total)
T3C48 402:720 JLINK_ReadReg(R15 (PC))  returns 0x0800019C (0000ms, 1711ms total)
T3C48 402:720 JLINK_ReadReg(XPSR)  returns 0x01000000 (0000ms, 1711ms total)
T3C48 402:720 JLINK_ReadReg(MSP)  returns 0x20002EC0 (0000ms, 1711ms total)
T3C48 402:720 JLINK_ReadReg(PSP)  returns 0x00000000 (0000ms, 1711ms total)
T3C48 402:720 JLINK_ReadReg(CFBP)  returns 0x00000000 (0000ms, 1711ms total)
T3C48 402:720 JLINK_ReadReg(FPSCR)  returns 0x00000000 (0005ms, 1716ms total)
T3C48 402:725 JLINK_ReadReg(FPS0)  returns 0x00000000 (0000ms, 1716ms total)
T3C48 402:725 JLINK_ReadReg(FPS1)  returns 0x00000000 (0000ms, 1716ms total)
T3C48 402:725 JLINK_ReadReg(FPS2)  returns 0x00000000 (0001ms, 1717ms total)
T3C48 402:726 JLINK_ReadReg(FPS3)  returns 0x00000000 (0000ms, 1717ms total)
T3C48 402:726 JLINK_ReadReg(FPS4)  returns 0x00000000 (0000ms, 1717ms total)
T3C48 402:726 JLINK_ReadReg(FPS5)  returns 0x00000000 (0000ms, 1717ms total)
T3C48 402:726 JLINK_ReadReg(FPS6)  returns 0x00000000 (0000ms, 1717ms total)
T3C48 402:726 JLINK_ReadReg(FPS7)  returns 0x00000000 (0000ms, 1717ms total)
T3C48 402:726 JLINK_ReadReg(FPS8)  returns 0x00000000 (0000ms, 1717ms total)
T3C48 402:726 JLINK_ReadReg(FPS9)  returns 0x00000000 (0000ms, 1717ms total)
T3C48 402:726 JLINK_ReadReg(FPS10)  returns 0x00000000 (0000ms, 1717ms total)
T3C48 402:726 JLINK_ReadReg(FPS11)  returns 0x00000000 (0000ms, 1717ms total)
T3C48 402:726 JLINK_ReadReg(FPS12)  returns 0x00000000 (0001ms, 1718ms total)
T3C48 402:727 JLINK_ReadReg(FPS13)  returns 0x00000000 (0000ms, 1718ms total)
T3C48 402:727 JLINK_ReadReg(FPS14)  returns 0x00000000 (0000ms, 1718ms total)
T3C48 402:727 JLINK_ReadReg(FPS15)  returns 0x00000000 (0000ms, 1718ms total)
T3C48 402:727 JLINK_ReadReg(FPS16)  returns 0x00000000 (0000ms, 1718ms total)
T3C48 402:727 JLINK_ReadReg(FPS17)  returns 0x00000000 (0000ms, 1718ms total)
T3C48 402:727 JLINK_ReadReg(FPS18)  returns 0x00000000 (0000ms, 1718ms total)
T3C48 402:727 JLINK_ReadReg(FPS19)  returns 0x00000000 (0000ms, 1718ms total)
T3C48 402:727 JLINK_ReadReg(FPS20)  returns 0x00000000 (0000ms, 1718ms total)
T3C48 402:727 JLINK_ReadReg(FPS21)  returns 0x00000000 (0001ms, 1719ms total)
T3C48 402:728 JLINK_ReadReg(FPS22)  returns 0x00000000 (0000ms, 1719ms total)
T3C48 402:728 JLINK_ReadReg(FPS23)  returns 0x00000000 (0000ms, 1719ms total)
T3C48 402:728 JLINK_ReadReg(FPS24)  returns 0x00000000 (0000ms, 1719ms total)
T3C48 402:728 JLINK_ReadReg(FPS25)  returns 0x00000000 (0000ms, 1719ms total)
T3C48 402:728 JLINK_ReadReg(FPS26)  returns 0x00000000 (0000ms, 1719ms total)
T3C48 402:728 JLINK_ReadReg(FPS27)  returns 0x00000000 (0000ms, 1719ms total)
T3C48 402:728 JLINK_ReadReg(FPS28)  returns 0x00000000 (0000ms, 1719ms total)
T3C48 402:728 JLINK_ReadReg(FPS29)  returns 0x00000000 (0000ms, 1719ms total)
T3C48 402:728 JLINK_ReadReg(FPS30)  returns 0x00000000 (0000ms, 1719ms total)
T3C48 402:729 JLINK_ReadReg(FPS31)  returns 0x00000000 (0000ms, 1720ms total)
T2E94 403:772 JLINK_ReadMemEx(0x0800019C, 0x0002 Bytes, ..., AccessWidth = 33554432)Mis-aligned memory read: Address: 0x0800019C, NumBytes: 2, Alignment: 2 (Halfword-aligned)
  ***** Mis-aligned memory read: Address: 0x0800019C, NumBytes: 2, Alignment: 2 (Halfword-aligned) -- CPU_ReadMem(2 bytes @ 0x0800019C) - Data: 06 48  returns 0x02 (0006ms, 1726ms total)
T2E94 403:778 JLINK_SetBPEx(Addr = 0x080024C8, Type = 0xFFFFFFF2)  returns 0x00000001 (0000ms, 1726ms total)
T2E94 403:779 JLINK_Go() -- CPU_WriteMem(4 bytes @ 0xE0002000) -- CPU_WriteMem(4 bytes @ 0xE0002008) -- CPU_WriteMem(4 bytes @ 0xE000200C) -- CPU_WriteMem(4 bytes @ 0xE0002010) -- CPU_WriteMem(4 bytes @ 0xE0002014) -- CPU_WriteMem(4 bytes @ 0xE0002018) -- CPU_WriteMem(4 bytes @ 0xE000201C) -- CPU_WriteMem(4 bytes @ 0xE0001004) (0006ms, 1732ms total)
T2E94 403:886 JLINK_IsHalted()  returns TRUE (0003ms, 1735ms total)
T2E94 403:889 JLINK_Halt()  returns 0x00 (0000ms, 1732ms total)
T2E94 403:889 JLINK_IsHalted()  returns TRUE (0000ms, 1732ms total)
T2E94 403:889 JLINK_IsHalted()  returns TRUE (0000ms, 1732ms total)
T2E94 403:890 JLINK_IsHalted()  returns TRUE (0000ms, 1732ms total)
T2E94 403:890 JLINK_ReadReg(R15 (PC))  returns 0x080024C8 (0000ms, 1732ms total)
T2E94 403:890 JLINK_ReadReg(XPSR)  returns 0x61000000 (0000ms, 1732ms total)
T2E94 403:890 JLINK_ClrBPEx(BPHandle = 0x00000001)  returns 0x00 (0000ms, 1732ms total)
T2E94 403:890 JLINK_ReadMemU32(0xE000ED30, 0x0001 Items, ...) -- CPU_ReadMem(4 bytes @ 0xE000ED30) - Data: 03 00 00 00  returns 0x01 (0001ms, 1733ms total)
T2E94 403:891 JLINK_ReadMemU32(0xE0001028, 0x0001 Items, ...) -- CPU_ReadMem(4 bytes @ 0xE0001028) - Data: 00 00 00 00  returns 0x01 (0001ms, 1734ms total)
T2E94 403:892 JLINK_ReadMemU32(0xE0001038, 0x0001 Items, ...) -- CPU_ReadMem(4 bytes @ 0xE0001038) - Data: 00 02 00 00  returns 0x01 (0001ms, 1735ms total)
T2E94 403:893 JLINK_ReadMemU32(0xE0001048, 0x0001 Items, ...) -- CPU_ReadMem(4 bytes @ 0xE0001048) - Data: 00 00 00 00  returns 0x01 (0001ms, 1736ms total)
T2E94 403:894 JLINK_ReadMemU32(0xE0001058, 0x0001 Items, ...) -- CPU_ReadMem(4 bytes @ 0xE0001058) - Data: 00 00 00 00  returns 0x01 (0001ms, 1737ms total)
T2E94 403:895 JLINK_ReadReg(R0)  returns 0x080024C9 (0000ms, 1737ms total)
T2E94 403:895 JLINK_ReadReg(R1)  returns 0x20002EC0 (0000ms, 1737ms total)
T2E94 403:895 JLINK_ReadReg(R2)  returns 0x00000000 (0000ms, 1737ms total)
T2E94 403:895 JLINK_ReadReg(R3)  returns 0x08001D69 (0001ms, 1738ms total)
T2E94 403:896 JLINK_ReadReg(R4)  returns 0x080040A8 (0000ms, 1738ms total)
T2E94 403:896 JLINK_ReadReg(R5)  returns 0x080040A8 (0000ms, 1738ms total)
T2E94 403:896 JLINK_ReadReg(R6)  returns 0x00000000 (0000ms, 1738ms total)
T2E94 403:896 JLINK_ReadReg(R7)  returns 0x00000000 (0000ms, 1738ms total)
T2E94 403:896 JLINK_ReadReg(R8)  returns 0x00000000 (0001ms, 1739ms total)
T2E94 403:897 JLINK_ReadReg(R9)  returns 0x00000000 (0000ms, 1739ms total)
T2E94 403:897 JLINK_ReadReg(R10)  returns 0x00000000 (0000ms, 1739ms total)
T2E94 403:897 JLINK_ReadReg(R11)  returns 0x00000000 (0000ms, 1739ms total)
T2E94 403:897 JLINK_ReadReg(R12)  returns 0x0000C000 (0000ms, 1739ms total)
T2E94 403:897 JLINK_ReadReg(R13 (SP))  returns 0x20002EC0 (0000ms, 1739ms total)
T2E94 403:897 JLINK_ReadReg(R14)  returns 0x08000329 (0001ms, 1740ms total)
T2E94 403:898 JLINK_ReadReg(R15 (PC))  returns 0x080024C8 (0000ms, 1740ms total)
T2E94 403:898 JLINK_ReadReg(XPSR)  returns 0x61000000 (0000ms, 1740ms total)
T2E94 403:898 JLINK_ReadReg(MSP)  returns 0x20002EC0 (0000ms, 1740ms total)
T2E94 403:898 JLINK_ReadReg(PSP)  returns 0x00000000 (0000ms, 1740ms total)
T2E94 403:898 JLINK_ReadReg(CFBP)  returns 0x00000000 (0001ms, 1741ms total)
T2E94 403:899 JLINK_ReadReg(FPSCR)  returns 0x00000000 (0005ms, 1746ms total)
T2E94 403:904 JLINK_ReadReg(FPS0)  returns 0x00000000 (0000ms, 1746ms total)
T2E94 403:904 JLINK_ReadReg(FPS1)  returns 0x00000000 (0000ms, 1746ms total)
T2E94 403:904 JLINK_ReadReg(FPS2)  returns 0x00000000 (0001ms, 1747ms total)
T2E94 403:905 JLINK_ReadReg(FPS3)  returns 0x00000000 (0000ms, 1747ms total)
T2E94 403:905 JLINK_ReadReg(FPS4)  returns 0x00000000 (0000ms, 1747ms total)
T2E94 403:905 JLINK_ReadReg(FPS5)  returns 0x00000000 (0000ms, 1747ms total)
T2E94 403:905 JLINK_ReadReg(FPS6)  returns 0x00000000 (0000ms, 1747ms total)
T2E94 403:905 JLINK_ReadReg(FPS7)  returns 0x00000000 (0001ms, 1748ms total)
T2E94 403:906 JLINK_ReadReg(FPS8)  returns 0x00000000 (0000ms, 1748ms total)
T2E94 403:906 JLINK_ReadReg(FPS9)  returns 0x00000000 (0000ms, 1748ms total)
T2E94 403:906 JLINK_ReadReg(FPS10)  returns 0x00000000 (0000ms, 1748ms total)
T2E94 403:906 JLINK_ReadReg(FPS11)  returns 0x00000000 (0000ms, 1748ms total)
T2E94 403:906 JLINK_ReadReg(FPS12)  returns 0x00000000 (0000ms, 1748ms total)
T2E94 403:906 JLINK_ReadReg(FPS13)  returns 0x00000000 (0001ms, 1749ms total)
T2E94 403:907 JLINK_ReadReg(FPS14)  returns 0x00000000 (0000ms, 1749ms total)
T2E94 403:907 JLINK_ReadReg(FPS15)  returns 0x00000000 (0000ms, 1749ms total)
T2E94 403:907 JLINK_ReadReg(FPS16)  returns 0x00000000 (0000ms, 1749ms total)
T2E94 403:907 JLINK_ReadReg(FPS17)  returns 0x00000000 (0000ms, 1749ms total)
T2E94 403:907 JLINK_ReadReg(FPS18)  returns 0x00000000 (0000ms, 1749ms total)
T2E94 403:908 JLINK_ReadReg(FPS19)  returns 0x00000000 (0000ms, 1749ms total)
T2E94 403:908 JLINK_ReadReg(FPS20)  returns 0x00000000 (0000ms, 1749ms total)
T2E94 403:908 JLINK_ReadReg(FPS21)  returns 0x00000000 (0000ms, 1749ms total)
T2E94 403:908 JLINK_ReadReg(FPS22)  returns 0x00000000 (0000ms, 1749ms total)
T2E94 403:908 JLINK_ReadReg(FPS23)  returns 0x00000000 (0000ms, 1749ms total)
T2E94 403:908 JLINK_ReadReg(FPS24)  returns 0x00000000 (0001ms, 1750ms total)
T2E94 403:909 JLINK_ReadReg(FPS25)  returns 0x00000000 (0000ms, 1750ms total)
T2E94 403:909 JLINK_ReadReg(FPS26)  returns 0x00000000 (0000ms, 1750ms total)
T2E94 403:909 JLINK_ReadReg(FPS27)  returns 0x00000000 (0000ms, 1750ms total)
T2E94 403:909 JLINK_ReadReg(FPS28)  returns 0x00000000 (0000ms, 1750ms total)
T2E94 403:909 JLINK_ReadReg(FPS29)  returns 0x00000000 (0000ms, 1750ms total)
T2E94 403:909 JLINK_ReadReg(FPS30)  returns 0x00000000 (0001ms, 1751ms total)
T2E94 403:910 JLINK_ReadReg(FPS31)  returns 0x00000000 (0000ms, 1751ms total)
T3C48 403:938 JLINK_ReadMemEx(0x40026400, 0x00CC Bytes, ..., AccessWidth = 33554436) -- CPU_ReadMem(204 bytes @ 0x40026400) - Data: 00 00 00 00 00 00 00 00 00 00 00 00 00 00 00 00 ...  returns 0xCC (0003ms, 1754ms total)
T3C48 403:941 JLINK_ReadMemEx(0x40026400, 0x0004 Bytes, ..., AccessWidth = 33554436) -- CPU_ReadMem(4 bytes @ 0x40026400) - Data: 00 00 00 00  returns 0x04 (0001ms, 1755ms total)
T3C48 403:942 JLINK_ReadMemEx(0x40026404, 0x0004 Bytes, ..., AccessWidth = 33554436) -- CPU_ReadMem(4 bytes @ 0x40026404) - Data: 00 00 00 00  returns 0x04 (0001ms, 1756ms total)
T3C48 403:943 JLINK_ReadMemEx(0x40026408, 0x0004 Bytes, ..., AccessWidth = 33554436) -- CPU_ReadMem(4 bytes @ 0x40026408) - Data: 00 00 00 00  returns 0x04 (0001ms, 1757ms total)
T3C48 403:944 JLINK_ReadMemEx(0x4002640C, 0x0004 Bytes, ..., AccessWidth = 33554436) -- CPU_ReadMem(4 bytes @ 0x4002640C) - Data: 00 00 00 00  returns 0x04 (0001ms, 1758ms total)
T3C48 403:945 JLINK_ReadMemEx(0x40026410, 0x0004 Bytes, ..., AccessWidth = 33554436) -- CPU_ReadMem(4 bytes @ 0x40026410) - Data: 00 00 00 00  returns 0x04 (0001ms, 1759ms total)
T3C48 403:946 JLINK_ReadMemEx(0x40026414, 0x0004 Bytes, ..., AccessWidth = 33554436) -- CPU_ReadMem(4 bytes @ 0x40026414) - Data: 00 00 00 00  returns 0x04 (0001ms, 1760ms total)
T3C48 403:947 JLINK_ReadMemEx(0x40026418, 0x0004 Bytes, ..., AccessWidth = 33554436) -- CPU_ReadMem(4 bytes @ 0x40026418) - Data: 00 00 00 00  returns 0x04 (0001ms, 1761ms total)
T3C48 403:948 JLINK_ReadMemEx(0x4002641C, 0x0004 Bytes, ..., AccessWidth = 33554436) -- CPU_ReadMem(4 bytes @ 0x4002641C) - Data: 00 00 00 00  returns 0x04 (0001ms, 1762ms total)
T3C48 403:949 JLINK_ReadMemEx(0x40026420, 0x0004 Bytes, ..., AccessWidth = 33554436) -- CPU_ReadMem(4 bytes @ 0x40026420) - Data: 00 00 00 00  returns 0x04 (0000ms, 1762ms total)
T3C48 403:949 JLINK_ReadMemEx(0x40026424, 0x0004 Bytes, ..., AccessWidth = 33554436) -- CPU_ReadMem(4 bytes @ 0x40026424) - Data: 00 00 00 00  returns 0x04 (0001ms, 1763ms total)
T3C48 403:950 JLINK_ReadMemEx(0x40026428, 0x0004 Bytes, ..., AccessWidth = 33554436) -- CPU_ReadMem(4 bytes @ 0x40026428) - Data: 00 00 00 00  returns 0x04 (0001ms, 1764ms total)
T3C48 403:951 JLINK_ReadMemEx(0x4002642C, 0x0004 Bytes, ..., AccessWidth = 33554436) -- CPU_ReadMem(4 bytes @ 0x4002642C) - Data: 00 00 00 00  returns 0x04 (0000ms, 1764ms total)
T3C48 403:952 JLINK_ReadMemEx(0x40026430, 0x0004 Bytes, ..., AccessWidth = 33554436) -- CPU_ReadMem(4 bytes @ 0x40026430) - Data: 00 00 00 00  returns 0x04 (0000ms, 1765ms total)
T3C48 403:952 JLINK_ReadMemEx(0x40026434, 0x0004 Bytes, ..., AccessWidth = 33554436) -- CPU_ReadMem(4 bytes @ 0x40026434) - Data: 00 00 00 00  returns 0x04 (0001ms, 1766ms total)
T3C48 403:953 JLINK_ReadMemEx(0x40026438, 0x0004 Bytes, ..., AccessWidth = 33554436) -- CPU_ReadMem(4 bytes @ 0x40026438) - Data: 00 00 00 00  returns 0x04 (0001ms, 1767ms total)
T3C48 403:954 JLINK_ReadMemEx(0x4002643C, 0x0004 Bytes, ..., AccessWidth = 33554436) -- CPU_ReadMem(4 bytes @ 0x4002643C) - Data: 00 00 00 00  returns 0x04 (0000ms, 1767ms total)
T3C48 403:954 JLINK_ReadMemEx(0x40026440, 0x0004 Bytes, ..., AccessWidth = 33554436) -- CPU_ReadMem(4 bytes @ 0x40026440) - Data: 00 00 00 00  returns 0x04 (0001ms, 1768ms total)
T3C48 403:955 JLINK_ReadMemEx(0x40026444, 0x0004 Bytes, ..., AccessWidth = 33554436) -- CPU_ReadMem(4 bytes @ 0x40026444) - Data: 00 00 00 00  returns 0x04 (0001ms, 1769ms total)
T3C48 403:956 JLINK_ReadMemEx(0x40026448, 0x0004 Bytes, ..., AccessWidth = 33554436) -- CPU_ReadMem(4 bytes @ 0x40026448) - Data: 00 00 00 00  returns 0x04 (0001ms, 1770ms total)
T3C48 403:957 JLINK_ReadMemEx(0x4002644C, 0x0004 Bytes, ..., AccessWidth = 33554436) -- CPU_ReadMem(4 bytes @ 0x4002644C) - Data: 00 00 00 00  returns 0x04 (0000ms, 1770ms total)
T3C48 403:957 JLINK_ReadMemEx(0x40026450, 0x0004 Bytes, ..., AccessWidth = 33554436) -- CPU_ReadMem(4 bytes @ 0x40026450) - Data: 00 00 00 00  returns 0x04 (0001ms, 1771ms total)
T3C48 403:958 JLINK_ReadMemEx(0x40026454, 0x0004 Bytes, ..., AccessWidth = 33554436) -- CPU_ReadMem(4 bytes @ 0x40026454) - Data: 00 00 00 00  returns 0x04 (0001ms, 1772ms total)
T3C48 403:959 JLINK_ReadMemEx(0x40026458, 0x0004 Bytes, ..., AccessWidth = 33554436) -- CPU_ReadMem(4 bytes @ 0x40026458) - Data: 00 00 00 00  returns 0x04 (0001ms, 1773ms total)
T3C48 403:960 JLINK_ReadMemEx(0x4002645C, 0x0004 Bytes, ..., AccessWidth = 33554436) -- CPU_ReadMem(4 bytes @ 0x4002645C) - Data: 00 00 00 00  returns 0x04 (0001ms, 1774ms total)
T3C48 403:961 JLINK_ReadMemEx(0x40026460, 0x0004 Bytes, ..., AccessWidth = 33554436) -- CPU_ReadMem(4 bytes @ 0x40026460) - Data: 00 00 00 00  returns 0x04 (0001ms, 1775ms total)
T3C48 403:962 JLINK_ReadMemEx(0x40026464, 0x0004 Bytes, ..., AccessWidth = 33554436) -- CPU_ReadMem(4 bytes @ 0x40026464) - Data: 00 00 00 00  returns 0x04 (0001ms, 1776ms total)
T3C48 403:963 JLINK_ReadMemEx(0x40026468, 0x0004 Bytes, ..., AccessWidth = 33554436) -- CPU_ReadMem(4 bytes @ 0x40026468) - Data: 00 00 00 00  returns 0x04 (0000ms, 1776ms total)
T3C48 403:964 JLINK_ReadMemEx(0x4002646C, 0x0004 Bytes, ..., AccessWidth = 33554436) -- CPU_ReadMem(4 bytes @ 0x4002646C) - Data: 00 00 00 00  returns 0x04 (0000ms, 1777ms total)
T3C48 403:964 JLINK_ReadMemEx(0x40026470, 0x0004 Bytes, ..., AccessWidth = 33554436) -- CPU_ReadMem(4 bytes @ 0x40026470) - Data: 00 00 00 00  returns 0x04 (0001ms, 1778ms total)
T3C48 403:965 JLINK_ReadMemEx(0x40026474, 0x0004 Bytes, ..., AccessWidth = 33554436) -- CPU_ReadMem(4 bytes @ 0x40026474) - Data: 00 00 00 00  returns 0x04 (0001ms, 1779ms total)
T3C48 403:966 JLINK_ReadMemEx(0x40026478, 0x0004 Bytes, ..., AccessWidth = 33554436) -- CPU_ReadMem(4 bytes @ 0x40026478) - Data: 00 00 00 00  returns 0x04 (0001ms, 1780ms total)
T3C48 403:967 JLINK_ReadMemEx(0x4002647C, 0x0004 Bytes, ..., AccessWidth = 33554436) -- CPU_ReadMem(4 bytes @ 0x4002647C) - Data: 00 00 00 00  returns 0x04 (0000ms, 1780ms total)
T3C48 403:967 JLINK_ReadMemEx(0x40026480, 0x0004 Bytes, ..., AccessWidth = 33554436) -- CPU_ReadMem(4 bytes @ 0x40026480) - Data: 00 00 00 00  returns 0x04 (0001ms, 1781ms total)
T3C48 403:968 JLINK_ReadMemEx(0x40026484, 0x0004 Bytes, ..., AccessWidth = 33554436) -- CPU_ReadMem(4 bytes @ 0x40026484) - Data: 00 00 00 00  returns 0x04 (0001ms, 1782ms total)
T3C48 403:969 JLINK_ReadMemEx(0x40026488, 0x0004 Bytes, ..., AccessWidth = 33554436) -- CPU_ReadMem(4 bytes @ 0x40026488) - Data: 00 00 00 00  returns 0x04 (0000ms, 1782ms total)
T3C48 403:969 JLINK_ReadMemEx(0x4002648C, 0x0004 Bytes, ..., AccessWidth = 33554436) -- CPU_ReadMem(4 bytes @ 0x4002648C) - Data: 00 00 00 00  returns 0x04 (0001ms, 1783ms total)
T3C48 403:970 JLINK_ReadMemEx(0x40026490, 0x0004 Bytes, ..., AccessWidth = 33554436) -- CPU_ReadMem(4 bytes @ 0x40026490) - Data: 00 00 00 00  returns 0x04 (0001ms, 1784ms total)
T3C48 403:971 JLINK_ReadMemEx(0x40026494, 0x0004 Bytes, ..., AccessWidth = 33554436) -- CPU_ReadMem(4 bytes @ 0x40026494) - Data: 00 00 00 00  returns 0x04 (0001ms, 1785ms total)
T3C48 403:972 JLINK_ReadMemEx(0x40026498, 0x0004 Bytes, ..., AccessWidth = 33554436) -- CPU_ReadMem(4 bytes @ 0x40026498) - Data: 00 00 00 00  returns 0x04 (0000ms, 1785ms total)
T3C48 403:972 JLINK_ReadMemEx(0x4002649C, 0x0004 Bytes, ..., AccessWidth = 33554436) -- CPU_ReadMem(4 bytes @ 0x4002649C) - Data: 00 00 00 00  returns 0x04 (0001ms, 1786ms total)
T3C48 403:973 JLINK_ReadMemEx(0x400264A0, 0x0004 Bytes, ..., AccessWidth = 33554436) -- CPU_ReadMem(4 bytes @ 0x400264A0) - Data: 00 00 00 00  returns 0x04 (0001ms, 1787ms total)
T3C48 403:974 JLINK_ReadMemEx(0x400264A4, 0x0004 Bytes, ..., AccessWidth = 33554436) -- CPU_ReadMem(4 bytes @ 0x400264A4) - Data: 00 00 00 00  returns 0x04 (0001ms, 1788ms total)
T3C48 403:975 JLINK_ReadMemEx(0x400264A8, 0x0004 Bytes, ..., AccessWidth = 33554436) -- CPU_ReadMem(4 bytes @ 0x400264A8) - Data: 00 00 00 00  returns 0x04 (0001ms, 1789ms total)
T3C48 403:976 JLINK_ReadMemEx(0x400264AC, 0x0004 Bytes, ..., AccessWidth = 33554436) -- CPU_ReadMem(4 bytes @ 0x400264AC) - Data: 00 00 00 00  returns 0x04 (0000ms, 1789ms total)
T3C48 403:977 JLINK_ReadMemEx(0x400264B0, 0x0004 Bytes, ..., AccessWidth = 33554436) -- CPU_ReadMem(4 bytes @ 0x400264B0) - Data: 00 00 00 00  returns 0x04 (0000ms, 1789ms total)
T3C48 403:977 JLINK_ReadMemEx(0x400264B4, 0x0004 Bytes, ..., AccessWidth = 33554436) -- CPU_ReadMem(4 bytes @ 0x400264B4) - Data: 00 00 00 00  returns 0x04 (0001ms, 1790ms total)
T3C48 403:978 JLINK_ReadMemEx(0x400264B8, 0x0004 Bytes, ..., AccessWidth = 33554436) -- CPU_ReadMem(4 bytes @ 0x400264B8) - Data: 00 00 00 00  returns 0x04 (0001ms, 1791ms total)
T3C48 403:979 JLINK_ReadMemEx(0x400264BC, 0x0004 Bytes, ..., AccessWidth = 33554436) -- CPU_ReadMem(4 bytes @ 0x400264BC) - Data: 00 00 00 00  returns 0x04 (0000ms, 1791ms total)
T3C48 403:979 JLINK_ReadMemEx(0x400264C0, 0x0004 Bytes, ..., AccessWidth = 33554436) -- CPU_ReadMem(4 bytes @ 0x400264C0) - Data: 00 00 00 00  returns 0x04 (0001ms, 1792ms total)
T3C48 403:980 JLINK_ReadMemEx(0x400264C4, 0x0004 Bytes, ..., AccessWidth = 33554436) -- CPU_ReadMem(4 bytes @ 0x400264C4) - Data: 00 00 00 00  returns 0x04 (0001ms, 1793ms total)
T3C48 403:981 JLINK_ReadMemEx(0x400264C8, 0x0004 Bytes, ..., AccessWidth = 33554436) -- CPU_ReadMem(4 bytes @ 0x400264C8) - Data: 00 00 00 00  returns 0x04 (0001ms, 1794ms total)
T3C48 403:982 JLINK_ReadMemEx(0x400264CC, 0x0004 Bytes, ..., AccessWidth = 33554436) -- CPU_ReadMem(4 bytes @ 0x400264CC) - Data: 00 00 00 00  returns 0x04 (0000ms, 1794ms total)
T3C48 403:982 JLINK_ReadMemEx(0x400264CC, 0x0004 Bytes, ..., AccessWidth = 33554436) -- CPU_ReadMem(4 bytes @ 0x400264CC) - Data: 00 00 00 00  returns 0x04 (0001ms, 1795ms total)
T3C48 403:984 JLINK_ReadMemEx(0x080023C8, 0x0038 Bytes, ..., AccessWidth = 33554432)Mis-aligned memory read: Address: 0x080023C8, NumBytes: 56, Alignment: 2 (Halfword-aligned)
  ***** Mis-aligned memory read: Address: 0x080023C8, NumBytes: 56, Alignment: 2 (Halfword-aligned) -- CPU_ReadMem(64 bytes @ 0x080023C0) -- Updating DA cache (64 bytes @ 0x080023C0) -- Read from DA cache (56 bytes @ 0x080023C8) - Data: 11 21 20 46 FE F7 6A F8 01 23 3B 4D 1A 46 19 46 ...  returns 0x38 (0002ms, 1797ms total)
T3C48 403:986 JLINK_ReadMemEx(0x08002400, 0x0004 Bytes, ..., AccessWidth = 33554432)Mis-aligned memory read: Address: 0x08002400, NumBytes: 4, Alignment: 2 (Halfword-aligned)
  ***** Mis-aligned memory read: Address: 0x08002400, NumBytes: 4, Alignment: 2 (Halfword-aligned) -- CPU_ReadMem(64 bytes @ 0x08002400) -- Updating DA cache (64 bytes @ 0x08002400) -- Read from DA cache (4 bytes @ 0x08002400) - Data: 51 F8 01 23  returns 0x04 (0002ms, 1799ms total)
T3C48 403:988 JLINK_ReadMemEx(0x08002404, 0x003C Bytes, ..., AccessWidth = 33554432)Mis-aligned memory read: Address: 0x08002404, NumBytes: 60, Alignment: 2 (Halfword-aligned)
  ***** Mis-aligned memory read: Address: 0x08002404, NumBytes: 60, Alignment: 2 (Halfword-aligned) -- Read from DA cache (60 bytes @ 0x08002404) - Data: 05 22 00 21 28 46 FE F7 4B F8 2D 4E 01 23 1A 46 ...  returns 0x3C (0000ms, 1799ms total)
T3C48 403:988 JLINK_ReadMemEx(0x08002440, 0x003C Bytes, ..., AccessWidth = 33554432)Mis-aligned memory read: Address: 0x08002440, NumBytes: 60, Alignment: 2 (Halfword-aligned)
  ***** Mis-aligned memory read: Address: 0x08002440, NumBytes: 60, Alignment: 2 (Halfword-aligned) -- CPU_ReadMem(64 bytes @ 0x08002440) -- Updating DA cache (64 bytes @ 0x08002440) -- Read from DA cache (60 bytes @ 0x08002440) - Data: 01 23 05 22 19 46 30 46 FE F7 2C F8 01 23 1A 46 ...  returns 0x3C (0002ms, 1801ms total)
T3C48 403:990 JLINK_ReadMemEx(0x0800247C, 0x003C Bytes, ..., AccessWidth = 33554432)Mis-aligned memory read: Address: 0x0800247C, NumBytes: 60, Alignment: 2 (Halfword-aligned)
  ***** Mis-aligned memory read: Address: 0x0800247C, NumBytes: 60, Alignment: 2 (Halfword-aligned) -- CPU_ReadMem(64 bytes @ 0x08002480) -- Updating DA cache (64 bytes @ 0x08002480) -- Read from DA cache (60 bytes @ 0x0800247C) - Data: 01 23 02 22 0B 21 28 46 FD F7 D2 FF 01 23 02 22 ...  returns 0x3C (0001ms, 1802ms total)
T3C48 403:991 JLINK_ReadMemEx(0x080024B8, 0x003C Bytes, ..., AccessWidth = 33554432)Mis-aligned memory read: Address: 0x080024B8, NumBytes: 60, Alignment: 2 (Halfword-aligned)
  ***** Mis-aligned memory read: Address: 0x080024B8, NumBytes: 60, Alignment: 2 (Halfword-aligned) -- CPU_ReadMem(64 bytes @ 0x080024C0) -- Updating DA cache (64 bytes @ 0x080024C0) -- Read from DA cache (60 bytes @ 0x080024B8) - Data: FD F7 B8 BF 00 20 01 40 00 21 01 40 00 22 01 40 ...  returns 0x3C (0002ms, 1804ms total)
T2E94 405:795 JLINK_ReadMemEx(0x080024C8, 0x0002 Bytes, ..., AccessWidth = 33554432)Mis-aligned memory read: Address: 0x080024C8, NumBytes: 2, Alignment: 2 (Halfword-aligned)
  ***** Mis-aligned memory read: Address: 0x080024C8, NumBytes: 2, Alignment: 2 (Halfword-aligned) -- Read from DA cache (2 bytes @ 0x080024C8) - Data: 10 B5  returns 0x02 (0014ms, 1818ms total)
T2E94 405:810 JLINK_Go() -- CPU_WriteMem(4 bytes @ 0xE0002008) (0002ms, 1820ms total)
T2E94 405:913 JLINK_IsHalted()  returns FALSE (0000ms, 1820ms total)
T2E94 406:014 JLINK_IsHalted()  returns FALSE (0000ms, 1820ms total)
T2E94 406:116 JLINK_IsHalted()  returns FALSE (0000ms, 1820ms total)
T2E94 406:218 JLINK_IsHalted()  returns FALSE (0000ms, 1820ms total)
T2E94 406:320 JLINK_ReadMemU32(0xE0001004, 0x0001 Items, ...) -- CPU is running -- CPU_ReadMem(4 bytes @ 0xE0001004) - Data: 57 65 A1 01  returns 0x01 (0001ms, 1821ms total)
T3C48 406:324 JLINK_ReadMemEx(0x40026400, 0x00CC Bytes, ..., AccessWidth = 33554436) -- CPU is running -- CPU_ReadMem(204 bytes @ 0x40026400) - Data: 00 00 00 00 10 00 00 00 00 00 00 00 00 00 00 00 ...  returns 0xCC (0003ms, 1824ms total)
T3C48 406:327 JLINK_ReadMemEx(0x40026400, 0x0004 Bytes, ..., AccessWidth = 33554436) -- CPU is running -- CPU_ReadMem(4 bytes @ 0x40026400) - Data: 00 00 00 00  returns 0x04 (0001ms, 1825ms total)
T3C48 406:328 JLINK_ReadMemEx(0x40026404, 0x0004 Bytes, ..., AccessWidth = 33554436) -- CPU is running -- CPU_ReadMem(4 bytes @ 0x40026404) - Data: 10 00 00 00  returns 0x04 (0001ms, 1826ms total)
T3C48 406:329 JLINK_ReadMemEx(0x40026408, 0x0004 Bytes, ..., AccessWidth = 33554436) -- CPU is running -- CPU_ReadMem(4 bytes @ 0x40026408) - Data: 00 00 00 00  returns 0x04 (0001ms, 1827ms total)
T3C48 406:330 JLINK_ReadMemEx(0x4002640C, 0x0004 Bytes, ..., AccessWidth = 33554436) -- CPU is running -- CPU_ReadMem(4 bytes @ 0x4002640C) - Data: 00 00 00 00  returns 0x04 (0001ms, 1828ms total)
T3C48 406:331 JLINK_ReadMemEx(0x40026410, 0x0004 Bytes, ..., AccessWidth = 33554436) -- CPU is running -- CPU_ReadMem(4 bytes @ 0x40026410) - Data: 00 00 00 00  returns 0x04 (0001ms, 1829ms total)
T3C48 406:332 JLINK_ReadMemEx(0x40026414, 0x0004 Bytes, ..., AccessWidth = 33554436) -- CPU is running -- CPU_ReadMem(4 bytes @ 0x40026414) - Data: 00 00 00 00  returns 0x04 (0000ms, 1829ms total)
T3C48 406:332 JLINK_ReadMemEx(0x40026418, 0x0004 Bytes, ..., AccessWidth = 33554436) -- CPU is running -- CPU_ReadMem(4 bytes @ 0x40026418) - Data: 00 00 00 00  returns 0x04 (0001ms, 1830ms total)
T3C48 406:333 JLINK_ReadMemEx(0x4002641C, 0x0004 Bytes, ..., AccessWidth = 33554436) -- CPU is running -- CPU_ReadMem(4 bytes @ 0x4002641C) - Data: 00 00 00 00  returns 0x04 (0001ms, 1831ms total)
T3C48 406:334 JLINK_ReadMemEx(0x40026420, 0x0004 Bytes, ..., AccessWidth = 33554436) -- CPU is running -- CPU_ReadMem(4 bytes @ 0x40026420) - Data: 00 00 00 00  returns 0x04 (0001ms, 1832ms total)
T3C48 406:335 JLINK_ReadMemEx(0x40026424, 0x0004 Bytes, ..., AccessWidth = 33554436) -- CPU is running -- CPU_ReadMem(4 bytes @ 0x40026424) - Data: 21 00 00 00  returns 0x04 (0001ms, 1833ms total)
T3C48 406:336 JLINK_ReadMemEx(0x40026428, 0x0004 Bytes, ..., AccessWidth = 33554436) -- CPU is running -- CPU_ReadMem(4 bytes @ 0x40026428) - Data: 00 00 00 00  returns 0x04 (0000ms, 1833ms total)
T3C48 406:336 JLINK_ReadMemEx(0x4002642C, 0x0004 Bytes, ..., AccessWidth = 33554436) -- CPU is running -- CPU_ReadMem(4 bytes @ 0x4002642C) - Data: 00 00 00 00  returns 0x04 (0001ms, 1834ms total)
T3C48 406:337 JLINK_ReadMemEx(0x40026430, 0x0004 Bytes, ..., AccessWidth = 33554436) -- CPU is running -- CPU_ReadMem(4 bytes @ 0x40026430) - Data: 00 00 00 00  returns 0x04 (0001ms, 1835ms total)
T3C48 406:338 JLINK_ReadMemEx(0x40026434, 0x0004 Bytes, ..., AccessWidth = 33554436) -- CPU is running -- CPU_ReadMem(4 bytes @ 0x40026434) - Data: 00 00 00 00  returns 0x04 (0001ms, 1836ms total)
T3C48 406:339 JLINK_ReadMemEx(0x40026438, 0x0004 Bytes, ..., AccessWidth = 33554436) -- CPU is running -- CPU_ReadMem(4 bytes @ 0x40026438) - Data: 00 00 00 00  returns 0x04 (0001ms, 1837ms total)
T3C48 406:340 JLINK_ReadMemEx(0x4002643C, 0x0004 Bytes, ..., AccessWidth = 33554436) -- CPU is running -- CPU_ReadMem(4 bytes @ 0x4002643C) - Data: 21 00 00 00  returns 0x04 (0000ms, 1837ms total)
T3C48 406:340 JLINK_ReadMemEx(0x40026440, 0x0004 Bytes, ..., AccessWidth = 33554436) -- CPU is running -- CPU_ReadMem(4 bytes @ 0x40026440) - Data: 00 00 00 00  returns 0x04 (0001ms, 1838ms total)
T3C48 406:341 JLINK_ReadMemEx(0x40026444, 0x0004 Bytes, ..., AccessWidth = 33554436) -- CPU is running -- CPU_ReadMem(4 bytes @ 0x40026444) - Data: 00 00 00 00  returns 0x04 (0001ms, 1839ms total)
T3C48 406:342 JLINK_ReadMemEx(0x40026448, 0x0004 Bytes, ..., AccessWidth = 33554436) -- CPU is running -- CPU_ReadMem(4 bytes @ 0x40026448) - Data: 00 00 00 00  returns 0x04 (0000ms, 1839ms total)
T3C48 406:343 JLINK_ReadMemEx(0x4002644C, 0x0004 Bytes, ..., AccessWidth = 33554436) -- CPU is running -- CPU_ReadMem(4 bytes @ 0x4002644C) - Data: 00 00 00 00  returns 0x04 (0000ms, 1839ms total)
T3C48 406:343 JLINK_ReadMemEx(0x40026450, 0x0004 Bytes, ..., AccessWidth = 33554436) -- CPU is running -- CPU_ReadMem(4 bytes @ 0x40026450) - Data: 00 00 00 00  returns 0x04 (0001ms, 1840ms total)
T3C48 406:344 JLINK_ReadMemEx(0x40026454, 0x0004 Bytes, ..., AccessWidth = 33554436) -- CPU is running -- CPU_ReadMem(4 bytes @ 0x40026454) - Data: 21 00 00 00  returns 0x04 (0001ms, 1841ms total)
T3C48 406:345 JLINK_ReadMemEx(0x40026458, 0x0004 Bytes, ..., AccessWidth = 33554436) -- CPU is running -- CPU_ReadMem(4 bytes @ 0x40026458) - Data: 00 00 00 00  returns 0x04 (0000ms, 1841ms total)
T3C48 406:346 JLINK_ReadMemEx(0x4002645C, 0x0004 Bytes, ..., AccessWidth = 33554436) -- CPU is running -- CPU_ReadMem(4 bytes @ 0x4002645C) - Data: 00 00 00 00  returns 0x04 (0000ms, 1842ms total)
T3C48 406:346 JLINK_ReadMemEx(0x40026460, 0x0004 Bytes, ..., AccessWidth = 33554436) -- CPU is running -- CPU_ReadMem(4 bytes @ 0x40026460) - Data: 00 00 00 00  returns 0x04 (0001ms, 1843ms total)
T3C48 406:347 JLINK_ReadMemEx(0x40026464, 0x0004 Bytes, ..., AccessWidth = 33554436) -- CPU is running -- CPU_ReadMem(4 bytes @ 0x40026464) - Data: 00 00 00 00  returns 0x04 (0001ms, 1844ms total)
T3C48 406:348 JLINK_ReadMemEx(0x40026468, 0x0004 Bytes, ..., AccessWidth = 33554436) -- CPU is running -- CPU_ReadMem(4 bytes @ 0x40026468) - Data: 00 00 00 00  returns 0x04 (0001ms, 1845ms total)
T3C48 406:349 JLINK_ReadMemEx(0x4002646C, 0x0004 Bytes, ..., AccessWidth = 33554436) -- CPU is running -- CPU_ReadMem(4 bytes @ 0x4002646C) - Data: 21 00 00 00  returns 0x04 (0001ms, 1846ms total)
T3C48 406:350 JLINK_ReadMemEx(0x40026470, 0x0004 Bytes, ..., AccessWidth = 33554436) -- CPU is running -- CPU_ReadMem(4 bytes @ 0x40026470) - Data: 11 2D 02 00  returns 0x04 (0000ms, 1846ms total)
T3C48 406:350 JLINK_ReadMemEx(0x40026474, 0x0004 Bytes, ..., AccessWidth = 33554436) -- CPU is running -- CPU_ReadMem(4 bytes @ 0x40026474) - Data: 0F 00 00 00  returns 0x04 (0001ms, 1847ms total)
T3C48 406:351 JLINK_ReadMemEx(0x40026478, 0x0004 Bytes, ..., AccessWidth = 33554436) -- CPU is running -- CPU_ReadMem(4 bytes @ 0x40026478) - Data: 08 23 01 40  returns 0x04 (0001ms, 1848ms total)
T3C48 406:352 JLINK_ReadMemEx(0x4002647C, 0x0004 Bytes, ..., AccessWidth = 33554436) -- CPU is running -- CPU_ReadMem(4 bytes @ 0x4002647C) - Data: 08 0D 00 20  returns 0x04 (0001ms, 1849ms total)
T3C48 406:353 JLINK_ReadMemEx(0x40026480, 0x0004 Bytes, ..., AccessWidth = 33554436) -- CPU is running -- CPU_ReadMem(4 bytes @ 0x40026480) - Data: 00 00 00 00  returns 0x04 (0001ms, 1850ms total)
T3C48 406:354 JLINK_ReadMemEx(0x40026484, 0x0004 Bytes, ..., AccessWidth = 33554436) -- CPU is running -- CPU_ReadMem(4 bytes @ 0x40026484) - Data: 20 00 00 00  returns 0x04 (0000ms, 1850ms total)
T3C48 406:354 JLINK_ReadMemEx(0x40026488, 0x0004 Bytes, ..., AccessWidth = 33554436) -- CPU is running -- CPU_ReadMem(4 bytes @ 0x40026488) - Data: 00 00 00 00  returns 0x04 (0000ms, 1850ms total)
T3C48 406:354 JLINK_ReadMemEx(0x4002648C, 0x0004 Bytes, ..., AccessWidth = 33554436) -- CPU is running -- CPU_ReadMem(4 bytes @ 0x4002648C) - Data: 00 00 00 00  returns 0x04 (0001ms, 1851ms total)
T3C48 406:355 JLINK_ReadMemEx(0x40026490, 0x0004 Bytes, ..., AccessWidth = 33554436) -- CPU is running -- CPU_ReadMem(4 bytes @ 0x40026490) - Data: 00 00 00 00  returns 0x04 (0001ms, 1852ms total)
T3C48 406:356 JLINK_ReadMemEx(0x40026494, 0x0004 Bytes, ..., AccessWidth = 33554436) -- CPU is running -- CPU_ReadMem(4 bytes @ 0x40026494) - Data: 00 00 00 00  returns 0x04 (0001ms, 1853ms total)
T3C48 406:357 JLINK_ReadMemEx(0x40026498, 0x0004 Bytes, ..., AccessWidth = 33554436) -- CPU is running -- CPU_ReadMem(4 bytes @ 0x40026498) - Data: 00 00 00 00  returns 0x04 (0001ms, 1854ms total)
T3C48 406:358 JLINK_ReadMemEx(0x4002649C, 0x0004 Bytes, ..., AccessWidth = 33554436) -- CPU is running -- CPU_ReadMem(4 bytes @ 0x4002649C) - Data: 21 00 00 00  returns 0x04 (0000ms, 1854ms total)
